T44AC 000:291.354   SEGGER J-Link V8.20 Log File
T44AC 000:291.461   DLL Compiled: Mar 12 2025 12:14:11
T44AC 000:291.466   Logging started @ 2025-04-25 18:47
T44AC 000:291.471   Process: C:\Keil_v5\UV4\UV4.EXE
T44AC 000:291.480 - 291.476ms 
T44AC 000:291.489 JLINK_SetWarnOutHandler(...)
T44AC 000:291.494 - 0.006ms 
T44AC 000:291.500 JLINK_OpenEx(...)
T44AC 000:548.480   Firmware: J-Link ARM-OB STM32 compiled Aug 22 2012 19:52:04
T44AC 000:554.404   Firmware: J-Link ARM-OB STM32 compiled Aug 22 2012 19:52:04
T44AC 000:562.211   Hardware: V7.00
T44AC 000:562.239   S/N: 20090929
T44AC 000:562.248   OEM: SEGGER
T44AC 000:562.258   Feature(s): RDI,FlashDL,FlashBP,JFlash,GDBFull
T44AC 000:564.489   Bootloader: (FW returned invalid version)
T44AC 000:568.411   TELNET listener socket opened on port 19021
T44AC 000:568.575   WEBSRV WEBSRV_Init(): Starting webserver thread(s)
T44AC 000:568.743   WEBSRV Webserver running on local port 19080
T44AC 000:568.863   Looking for J-Link GUI Server exe at: C:\Keil_v5\ARM\Segger\JLinkGUIServer.exe
T44AC 000:568.921   Looking for J-Link GUI Server exe at: C:\Program Files\SEGGER\JLink_V820\JLinkGUIServer.exe
T44AC 000:568.959   Forking J-Link GUI Server: C:\Program Files\SEGGER\JLink_V820\JLinkGUIServer.exe
T44AC 000:571.671   J-Link GUI Server info: "J-Link GUI server V8.20 "
T44AC 000:572.016 - 280.509ms returns "O.K."
T44AC 000:572.049 JLINK_GetEmuCaps()
T44AC 000:572.062 - 0.009ms returns 0x88EA5833
T44AC 000:572.076 JLINK_TIF_GetAvailable(...)
T44AC 000:573.276 - 1.199ms 
T44AC 000:573.299 JLINK_SetErrorOutHandler(...)
T44AC 000:573.306 - 0.007ms 
T44AC 000:573.334 JLINK_ExecCommand("ProjectFile = "C:\Users\moham\OneDrive\Bureau\project\nRF5_SDK_12.3.0_d7731ad\examples\peripheral\blinky\pca10028\s130\arm4\JLinkSettings.ini"", ...). 
T44AC 000:584.097   Ref file found at: C:\Keil_v5\ARM\Segger\JLinkDevices.ref
T44AC 000:584.216   REF file references invalid XML file: C:\Program Files\SEGGER\JLink_V820\JLinkDevices.xml
T44AC 000:585.244 - 11.912ms returns 0x00
T44AC 000:588.255 JLINK_ExecCommand("Device = nRF51422_xxAC", ...). 
T44AC 000:591.766   Device "NRF51422_XXAC" selected.
T44AC 000:592.162 - 3.888ms returns 0x00
T44AC 000:592.189 JLINK_ExecCommand("DisableConnectionTimeout", ...). 
T44AC 000:592.208   ERROR: Unknown command
T44AC 000:592.218 - 0.019ms returns 0x01
T44AC 000:592.228 JLINK_GetHardwareVersion()
T44AC 000:592.238 - 0.008ms returns 70000
T44AC 000:592.247 JLINK_GetDLLVersion()
T44AC 000:592.253 - 0.006ms returns 82000
T44AC 000:592.265 JLINK_GetOEMString(...)
T44AC 000:592.275 JLINK_GetFirmwareString(...)
T44AC 000:592.283 - 0.008ms 
T44AC 000:600.354 JLINK_GetDLLVersion()
T44AC 000:600.380 - 0.026ms returns 82000
T44AC 000:600.387 JLINK_GetCompileDateTime()
T44AC 000:600.392 - 0.004ms 
T44AC 000:602.881 JLINK_GetFirmwareString(...)
T44AC 000:602.903 - 0.022ms 
T44AC 000:605.366 JLINK_GetHardwareVersion()
T44AC 000:605.379 - 0.012ms returns 70000
T44AC 000:608.254 JLINK_GetSN()
T44AC 000:608.267 - 0.013ms returns 20090929
T44AC 000:611.230 JLINK_GetOEMString(...)
T44AC 000:616.124 JLINK_TIF_Select(JLINKARM_TIF_SWD)
T44AC 000:621.202 - 5.077ms returns 0x00
T44AC 000:621.227 JLINK_HasError()
T44AC 000:621.239 JLINK_SetSpeed(5000)
T44AC 000:623.181 - 1.943ms 
T44AC 000:623.207 JLINK_GetId()
T44AC 000:628.427   InitTarget() start
T44AC 000:628.470    J-Link Script File: Executing InitTarget()
T44AC 000:630.895   InitTarget() end - Took 16us
T44AC 000:637.044   Found SW-DP with ID 0x0BB11477
T44AC 000:668.333   Old FW that does not support reading DPIDR via DAP jobs
T44AC 000:701.585   DPv0 detected
T44AC 000:704.188   CoreSight SoC-400 or earlier
T44AC 000:706.764   Scanning AP map to find all available APs
T44AC 000:724.527   AP[1]: Stopped AP scan as end of AP map has been reached
T44AC 000:727.155   AP[0]: AHB-AP (IDR: 0x04770021, ADDR: 0x00000000)
T44AC 000:729.846   Iterating through AP map to find AHB-AP to use
T44AC 000:763.181   AP[0]: Core found
T44AC 000:765.503   AP[0]: AHB-AP ROM base: 0xF0000000
T44AC 000:783.169   CPUID register: 0x410CC200. Implementer code: 0x41 (ARM)
T44AC 000:785.574   Found Cortex-M0 r0p0, Little endian.
T44AC 000:788.270   -- Max. mem block: 0x00002C18
T44AC 000:792.276   CPU_ReadMem(4 bytes @ 0xE000EDF0)
T44AC 000:794.475   CPU_WriteMem(4 bytes @ 0xE000EDF0)
T44AC 000:796.547   CPU_ReadMem(4 bytes @ 0xE0002000)
T44AC 000:801.398   FPUnit: 4 code (BP) slots and 0 literal slots
T44AC 000:801.423   CPU_ReadMem(4 bytes @ 0xE000EDFC)
T44AC 000:802.458   CPU_WriteMem(4 bytes @ 0xE000EDFC)
T44AC 000:804.548   CPU_ReadMem(4 bytes @ 0xE0001000)
T44AC 000:806.469   CPU_WriteMem(4 bytes @ 0xE0001000)
T44AC 000:811.913   CoreSight components:
T44AC 000:814.591   ROMTbl[0] @ F0000000
T44AC 000:814.617   CPU_ReadMem(64 bytes @ 0xF0000000)
T44AC 000:816.034   CPU_ReadMem(32 bytes @ 0xE00FFFE0)
T44AC 000:820.831   [0][0]: E00FF000 CID B105100D PID 000BB471 ROM Table
T44AC 000:823.188   ROMTbl[1] @ E00FF000
T44AC 000:823.209   CPU_ReadMem(64 bytes @ 0xE00FF000)
T44AC 000:825.052   CPU_ReadMem(32 bytes @ 0xE000EFE0)
T44AC 000:829.581   [1][0]: E000E000 CID B105E00D PID 000BB008 SCS
T44AC 000:829.610   CPU_ReadMem(32 bytes @ 0xE0001FE0)
T44AC 000:833.297   [1][1]: E0001000 CID B105E00D PID 000BB00A DWT
T44AC 000:833.315   CPU_ReadMem(32 bytes @ 0xE0002FE0)
T44AC 000:837.337   [1][2]: E0002000 CID B105E00D PID 000BB00B FPB
T44AC 000:837.364   CPU_ReadMem(32 bytes @ 0xF0002FE0)
T44AC 000:842.153   [0][1]: F0002000 CID B105900D PID 000BB9A3 ???
T44AC 000:844.889   SetupTarget() start
T44AC 000:844.912    J-Link Script File: Executing SetupTarget()
T44AC 000:844.937   CPU_ReadMem(4 bytes @ 0x10001004)
T44AC 000:848.249   SetupTarget() end - Took 687us
T44AC 000:849.296 - 226.087ms returns 0x0BB11477
T44AC 000:849.328 JLINK_GetDLLVersion()
T44AC 000:849.337 - 0.008ms returns 82000
T44AC 000:849.350 JLINK_CORE_GetFound()
T44AC 000:849.359 - 0.008ms returns 0x60000FF
T44AC 000:849.372 JLINK_GetDebugInfo(0x100 = JLINKARM_ROM_TABLE_ADDR_INDEX)
T44AC 000:849.381   Value=0xF0000000
T44AC 000:849.392 - 0.021ms returns 0
T44AC 000:852.286 JLINK_GetDebugInfo(0x100 = JLINKARM_ROM_TABLE_ADDR_INDEX)
T44AC 000:852.309   Value=0xF0000000
T44AC 000:852.316 - 0.030ms returns 0
T44AC 000:852.323 JLINK_GetDebugInfo(0x101 = JLINKARM_DEBUG_INFO_ETM_ADDR_INDEX)
T44AC 000:852.328   Value=0x00000000
T44AC 000:852.334 - 0.011ms returns 0
T44AC 000:852.341 JLINK_ReadMemEx(0xE0041FF0, 0x10 Bytes, Flags = 0x02000004)
T44AC 000:852.357   CPU_ReadMem(16 bytes @ 0xE0041FF0)
T44AC 000:853.665   Data:  00 00 00 00 00 00 00 00 00 00 00 00 00 00 00 00
T44AC 000:853.694 - 1.352ms returns 16 (0x10)
T44AC 000:853.711 JLINK_GetDebugInfo(0x102 = JLINKARM_DEBUG_INFO_MTB_ADDR_INDEX)
T44AC 000:853.721   Value=0x00000000
T44AC 000:853.735 - 0.025ms returns 0
T44AC 000:853.747 JLINK_GetDebugInfo(0x103 = JLINKARM_DEBUG_INFO_TPIU_ADDR_INDEX)
T44AC 000:853.756   Value=0x00000000
T44AC 000:853.770 - 0.023ms returns 0
T44AC 000:853.781 JLINK_ReadMemEx(0xE0040FF0, 0x10 Bytes, Flags = 0x02000004)
T44AC 000:853.799   CPU_ReadMem(16 bytes @ 0xE0040FF0)
T44AC 000:855.583   Data:  00 00 00 00 00 00 00 00 00 00 00 00 00 00 00 00
T44AC 000:855.605 - 1.823ms returns 16 (0x10)
T44AC 000:855.623 JLINK_GetDebugInfo(0x104 = JLINKARM_DEBUG_INFO_ITM_ADDR_INDEX)
T44AC 000:855.634   Value=0xE0000000
T44AC 000:855.649 - 0.027ms returns 0
T44AC 000:855.663 JLINK_GetDebugInfo(0x105 = JLINKARM_DEBUG_INFO_DWT_ADDR_INDEX)
T44AC 000:855.674   Value=0xE0001000
T44AC 000:855.690 - 0.027ms returns 0
T44AC 000:855.704 JLINK_GetDebugInfo(0x106 = JLINKARM_DEBUG_INFO_FPB_ADDR_INDEX)
T44AC 000:855.714   Value=0xE0002000
T44AC 000:855.730 - 0.027ms returns 0
T44AC 000:855.744 JLINK_GetDebugInfo(0x107 = JLINKARM_DEBUG_INFO_NVIC_ADDR_INDEX)
T44AC 000:855.755   Value=0xE000E000
T44AC 000:855.771 - 0.027ms returns 0
T44AC 000:855.785 JLINK_GetDebugInfo(0x10C = JLINKARM_DEBUG_INFO_DBG_ADDR_INDEX)
T44AC 000:855.795   Value=0xE000EDF0
T44AC 000:855.811 - 0.026ms returns 0
T44AC 000:855.824 JLINK_GetDebugInfo(0x01 = Unknown)
T44AC 000:855.835   Value=0x00000000
T44AC 000:855.859 - 0.035ms returns 0
T44AC 000:855.873 JLINK_ReadMemU32(0xE000ED00, 0x1 Items)
T44AC 000:855.890   CPU_ReadMem(4 bytes @ 0xE000ED00)
T44AC 000:857.468   Data:  00 C2 0C 41
T44AC 000:857.490   Debug reg: CPUID
T44AC 000:857.507 - 1.634ms returns 1 (0x1)
T44AC 000:857.524 JLINK_GetDebugInfo(0x10F = JLINKARM_DEBUG_INFO_HAS_CORTEX_M_SECURITY_EXT_INDEX)
T44AC 000:857.536   Value=0x00000000
T44AC 000:857.551 - 0.028ms returns 0
T44AC 000:857.565 JLINK_HasError()
T44AC 000:857.581 JLINK_SetResetType(JLINKARM_CM3_RESET_TYPE_NORMAL)
T44AC 000:857.593 - 0.012ms returns JLINKARM_CM3_RESET_TYPE_NORMAL
T44AC 000:857.606 JLINK_Reset()
T44AC 000:857.625   JLINK_GetResetTypeDesc
T44AC 000:857.637   - 0.011ms 
T44AC 000:860.982   Reset type: NORMAL (https://wiki.segger.com/J-Link_Reset_Strategies)
T44AC 000:861.012   CPU is running
T44AC 000:861.024   CPU_WriteMem(4 bytes @ 0xE000EDF0)
T44AC 000:862.542   CPU is running
T44AC 000:862.582   CPU_WriteMem(4 bytes @ 0xE000EDFC)
T44AC 000:867.303   Reset: Halt core after reset via DEMCR.VC_CORERESET.
T44AC 000:873.490   Reset: Reset device via AIRCR.SYSRESETREQ.
T44AC 000:873.513   CPU is running
T44AC 000:873.525   CPU_WriteMem(4 bytes @ 0xE000ED0C)
T44AC 000:933.342   CPU_ReadMem(4 bytes @ 0xE000EDF0)
T44AC 000:935.482   CPU_ReadMem(4 bytes @ 0xE000EDF0)
T44AC 000:943.628   CPU_WriteMem(4 bytes @ 0xE000EDFC)
T44AC 000:950.296   CPU_ReadMem(4 bytes @ 0xE000EDF0)
T44AC 000:957.569   CPU_WriteMem(4 bytes @ 0xE0002000)
T44AC 000:958.503   CPU_ReadMem(4 bytes @ 0xE000EDFC)
T44AC 000:960.474   CPU_ReadMem(4 bytes @ 0xE0001000)
T44AC 000:962.501   CPU_WriteMem(4 bytes @ 0xE0001000)
T44AC 000:964.582 - 106.975ms 
T44AC 000:964.613 JLINK_Halt()
T44AC 000:964.624 - 0.010ms returns 0x00
T44AC 000:964.641 JLINK_ReadMemU32(0xE000EDF0, 0x1 Items)
T44AC 000:964.662   CPU_ReadMem(4 bytes @ 0xE000EDF0)
T44AC 000:966.463   Data:  03 00 03 00
T44AC 000:966.484   Debug reg: DHCSR
T44AC 000:966.496 - 1.855ms returns 1 (0x1)
T44AC 000:966.519 JLINK_WriteU32(0xE000EDF0, 0xA05F0003)
T44AC 000:966.528   Debug reg: DHCSR
T44AC 000:966.796   CPU_WriteMem(4 bytes @ 0xE000EDF0)
T44AC 000:968.501 - 1.985ms returns 0 (0x00000000)
T44AC 000:968.537 JLINK_WriteU32(0xE000EDFC, 0x01000000)
T44AC 000:968.547   Debug reg: DEMCR
T44AC 000:968.569   CPU_WriteMem(4 bytes @ 0xE000EDFC)
T44AC 000:970.492 - 1.954ms returns 0 (0x00000000)
T44AC 000:984.662 JLINK_GetHWStatus(...)
T44AC 000:985.237 - 0.574ms returns 0
T44AC 000:992.154 JLINK_GetNumBPUnits(Type = 0xFFFFFF00)
T44AC 000:992.172 - 0.017ms returns 0x04
T44AC 000:992.179 JLINK_GetNumBPUnits(Type = 0xF0)
T44AC 000:992.184 - 0.005ms returns 0x2000
T44AC 000:992.190 JLINK_GetNumWPUnits()
T44AC 000:992.194 - 0.004ms returns 2
T44AC 000:999.849 JLINK_GetSpeed()
T44AC 000:999.873 - 0.024ms returns 4000
T44AC 001:006.048 JLINK_ReadMemU32(0xE000E004, 0x1 Items)
T44AC 001:006.085   CPU_ReadMem(4 bytes @ 0xE000E004)
T44AC 001:007.509   Data:  00 00 00 00
T44AC 001:007.537 - 1.488ms returns 1 (0x1)
T44AC 001:007.558 JLINK_Halt()
T44AC 001:007.569 - 0.010ms returns 0x00
T44AC 001:007.580 JLINK_IsHalted()
T44AC 001:007.592 - 0.011ms returns TRUE
T44AC 001:011.615 JLINK_WriteMem(0x20000000, 0x2EC Bytes, ...)
T44AC 001:011.630   Data:  00 BE 0A E0 0D 78 2D 06 68 40 08 24 40 00 00 D3 ...
T44AC 001:011.805   CPU_WriteMem(748 bytes @ 0x20000000)
T44AC 001:020.231 - 8.615ms returns 0x2EC
T44AC 001:020.298 JLINK_HasError()
T44AC 001:020.309 JLINK_WriteReg(R0, 0x00000000)
T44AC 001:020.325 - 0.016ms returns 0
T44AC 001:020.333 JLINK_WriteReg(R1, 0x00F42400)
T44AC 001:020.340 - 0.006ms returns 0
T44AC 001:020.347 JLINK_WriteReg(R2, 0x00000001)
T44AC 001:020.353 - 0.006ms returns 0
T44AC 001:020.360 JLINK_WriteReg(R3, 0x00000000)
T44AC 001:020.366 - 0.005ms returns 0
T44AC 001:020.373 JLINK_WriteReg(R4, 0x00000000)
T44AC 001:020.379 - 0.006ms returns 0
T44AC 001:020.386 JLINK_WriteReg(R5, 0x00000000)
T44AC 001:020.392 - 0.005ms returns 0
T44AC 001:020.399 JLINK_WriteReg(R6, 0x00000000)
T44AC 001:020.408 - 0.009ms returns 0
T44AC 001:020.416 JLINK_WriteReg(R7, 0x00000000)
T44AC 001:020.422 - 0.005ms returns 0
T44AC 001:020.432 JLINK_WriteReg(R8, 0x00000000)
T44AC 001:020.438 - 0.008ms returns 0
T44AC 001:020.445 JLINK_WriteReg(R9, 0x200002E8)
T44AC 001:020.451 - 0.005ms returns 0
T44AC 001:020.458 JLINK_WriteReg(R10, 0x00000000)
T44AC 001:020.463 - 0.005ms returns 0
T44AC 001:020.470 JLINK_WriteReg(R11, 0x00000000)
T44AC 001:020.476 - 0.005ms returns 0
T44AC 001:020.483 JLINK_WriteReg(R12, 0x00000000)
T44AC 001:020.489 - 0.006ms returns 0
T44AC 001:020.496 JLINK_WriteReg(R13 (SP), 0x20002000)
T44AC 001:020.503 - 0.006ms returns 0
T44AC 001:020.510 JLINK_WriteReg(R14, 0x20000001)
T44AC 001:020.516 - 0.006ms returns 0
T44AC 001:020.524 JLINK_WriteReg(R15 (PC), 0x20000028)
T44AC 001:020.531 - 0.007ms returns 0
T44AC 001:020.538 JLINK_WriteReg(XPSR, 0x01000000)
T44AC 001:020.543 - 0.006ms returns 0
T44AC 001:020.550 JLINK_WriteReg(MSP, 0x20002000)
T44AC 001:020.556 - 0.005ms returns 0
T44AC 001:020.563 JLINK_WriteReg(PSP, 0x20002000)
T44AC 001:020.569 - 0.006ms returns 0
T44AC 001:020.576 JLINK_WriteReg(CFBP, 0x00000000)
T44AC 001:020.582 - 0.006ms returns 0
T44AC 001:020.590 JLINK_SetBPEx(Addr = 0x20000000, Type = 0xFFFFFFF2)
T44AC 001:020.603   CPU_ReadMem(2 bytes @ 0x20000000)
T44AC 001:021.528 - 0.938ms returns 0x00000001
T44AC 001:021.550 JLINK_Go()
T44AC 001:021.562   CPU_WriteMem(2 bytes @ 0x20000000)
T44AC 001:023.504   CPU_ReadMem(4 bytes @ 0xE0001000)
T44AC 001:025.537   CPU_WriteMem(4 bytes @ 0xE0001000)
T44AC 001:027.485   CPU_WriteMem(4 bytes @ 0xE0002008)
T44AC 001:027.502   CPU_WriteMem(4 bytes @ 0xE000200C)
T44AC 001:027.510   CPU_WriteMem(4 bytes @ 0xE0002010)
T44AC 001:027.516   CPU_WriteMem(4 bytes @ 0xE0002014)
T44AC 001:030.486   CPU_WriteMem(4 bytes @ 0xE0001004)
T44AC 001:039.230   Memory map 'after startup completion point' is active
T44AC 001:039.255 - 17.704ms 
T44AC 001:039.271 JLINK_IsHalted()
T44AC 001:044.553   CPU_ReadMem(2 bytes @ 0x20000000)
T44AC 001:045.536 - 6.263ms returns TRUE
T44AC 001:045.574 JLINK_ReadReg(R15 (PC))
T44AC 001:045.589 - 0.014ms returns 0x20000000
T44AC 001:045.606 JLINK_ClrBPEx(BPHandle = 0x00000001)
T44AC 001:045.617 - 0.011ms returns 0x00
T44AC 001:045.634 JLINK_ReadReg(R0)
T44AC 001:045.645 - 0.011ms returns 0x00000000
T44AC 001:046.052 JLINK_HasError()
T44AC 001:046.064 JLINK_WriteReg(R0, 0x0001B000)
T44AC 001:046.071 - 0.006ms returns 0
T44AC 001:046.077 JLINK_WriteReg(R1, 0x00000400)
T44AC 001:046.082 - 0.005ms returns 0
T44AC 001:046.088 JLINK_WriteReg(R2, 0x000000FF)
T44AC 001:046.092 - 0.004ms returns 0
T44AC 001:046.098 JLINK_WriteReg(R3, 0x00000000)
T44AC 001:046.103 - 0.004ms returns 0
T44AC 001:046.108 JLINK_WriteReg(R4, 0x00000000)
T44AC 001:046.113 - 0.004ms returns 0
T44AC 001:046.118 JLINK_WriteReg(R5, 0x00000000)
T44AC 001:046.123 - 0.004ms returns 0
T44AC 001:046.129 JLINK_WriteReg(R6, 0x00000000)
T44AC 001:046.134 - 0.004ms returns 0
T44AC 001:046.139 JLINK_WriteReg(R7, 0x00000000)
T44AC 001:046.144 - 0.004ms returns 0
T44AC 001:046.149 JLINK_WriteReg(R8, 0x00000000)
T44AC 001:046.154 - 0.004ms returns 0
T44AC 001:046.160 JLINK_WriteReg(R9, 0x200002E8)
T44AC 001:046.164 - 0.004ms returns 0
T44AC 001:046.170 JLINK_WriteReg(R10, 0x00000000)
T44AC 001:046.175 - 0.004ms returns 0
T44AC 001:046.180 JLINK_WriteReg(R11, 0x00000000)
T44AC 001:046.185 - 0.004ms returns 0
T44AC 001:046.190 JLINK_WriteReg(R12, 0x00000000)
T44AC 001:046.195 - 0.005ms returns 0
T44AC 001:046.201 JLINK_WriteReg(R13 (SP), 0x20002000)
T44AC 001:046.206 - 0.005ms returns 0
T44AC 001:046.212 JLINK_WriteReg(R14, 0x20000001)
T44AC 001:046.216 - 0.004ms returns 0
T44AC 001:046.222 JLINK_WriteReg(R15 (PC), 0x20000144)
T44AC 001:046.227 - 0.004ms returns 0
T44AC 001:046.232 JLINK_WriteReg(XPSR, 0x01000000)
T44AC 001:046.237 - 0.004ms returns 0
T44AC 001:046.243 JLINK_WriteReg(MSP, 0x20002000)
T44AC 001:046.247 - 0.004ms returns 0
T44AC 001:046.253 JLINK_WriteReg(PSP, 0x20002000)
T44AC 001:046.304 - 0.051ms returns 0
T44AC 001:046.313 JLINK_WriteReg(CFBP, 0x00000000)
T44AC 001:046.318 - 0.004ms returns 0
T44AC 001:046.324 JLINK_SetBPEx(Addr = 0x20000000, Type = 0xFFFFFFF2)
T44AC 001:046.330 - 0.006ms returns 0x00000002
T44AC 001:046.336 JLINK_Go()
T44AC 001:046.347   CPU_ReadMem(4 bytes @ 0xE0001000)
T44AC 001:052.632 - 6.295ms 
T44AC 001:052.658 JLINK_IsHalted()
T44AC 001:058.607   CPU_ReadMem(2 bytes @ 0x20000000)
T44AC 001:059.486 - 6.826ms returns TRUE
T44AC 001:059.519 JLINK_ReadReg(R15 (PC))
T44AC 001:059.535 - 0.016ms returns 0x20000000
T44AC 001:059.547 JLINK_ClrBPEx(BPHandle = 0x00000002)
T44AC 001:059.557 - 0.010ms returns 0x00
T44AC 001:059.569 JLINK_ReadReg(R0)
T44AC 001:059.579 - 0.010ms returns 0x00000001
T44AC 001:059.592 JLINK_HasError()
T44AC 001:059.604 JLINK_WriteReg(R0, 0x0001B000)
T44AC 001:059.616 - 0.012ms returns 0
T44AC 001:059.629 JLINK_WriteReg(R1, 0x00000400)
T44AC 001:059.642 - 0.012ms returns 0
T44AC 001:059.651 JLINK_WriteReg(R2, 0x000000FF)
T44AC 001:059.656 - 0.005ms returns 0
T44AC 001:059.662 JLINK_WriteReg(R3, 0x00000000)
T44AC 001:059.666 - 0.004ms returns 0
T44AC 001:059.672 JLINK_WriteReg(R4, 0x00000000)
T44AC 001:059.677 - 0.004ms returns 0
T44AC 001:059.684 JLINK_WriteReg(R5, 0x00000000)
T44AC 001:059.693 - 0.009ms returns 0
T44AC 001:059.702 JLINK_WriteReg(R6, 0x00000000)
T44AC 001:059.710 - 0.008ms returns 0
T44AC 001:059.719 JLINK_WriteReg(R7, 0x00000000)
T44AC 001:059.726 - 0.007ms returns 0
T44AC 001:059.734 JLINK_WriteReg(R8, 0x00000000)
T44AC 001:059.743 - 0.008ms returns 0
T44AC 001:059.753 JLINK_WriteReg(R9, 0x200002E8)
T44AC 001:059.758 - 0.005ms returns 0
T44AC 001:059.764 JLINK_WriteReg(R10, 0x00000000)
T44AC 001:059.768 - 0.004ms returns 0
T44AC 001:059.774 JLINK_WriteReg(R11, 0x00000000)
T44AC 001:059.779 - 0.004ms returns 0
T44AC 001:059.784 JLINK_WriteReg(R12, 0x00000000)
T44AC 001:059.789 - 0.004ms returns 0
T44AC 001:059.795 JLINK_WriteReg(R13 (SP), 0x20002000)
T44AC 001:059.800 - 0.005ms returns 0
T44AC 001:059.805 JLINK_WriteReg(R14, 0x20000001)
T44AC 001:059.810 - 0.004ms returns 0
T44AC 001:059.816 JLINK_WriteReg(R15 (PC), 0x2000007C)
T44AC 001:059.821 - 0.004ms returns 0
T44AC 001:059.826 JLINK_WriteReg(XPSR, 0x01000000)
T44AC 001:059.831 - 0.005ms returns 0
T44AC 001:059.837 JLINK_WriteReg(MSP, 0x20002000)
T44AC 001:059.842 - 0.004ms returns 0
T44AC 001:059.847 JLINK_WriteReg(PSP, 0x20002000)
T44AC 001:059.852 - 0.004ms returns 0
T44AC 001:059.857 JLINK_WriteReg(CFBP, 0x00000000)
T44AC 001:059.862 - 0.004ms returns 0
T44AC 001:059.868 JLINK_SetBPEx(Addr = 0x20000000, Type = 0xFFFFFFF2)
T44AC 001:059.874 - 0.006ms returns 0x00000003
T44AC 001:059.880 JLINK_Go()
T44AC 001:059.893   CPU_ReadMem(4 bytes @ 0xE0001000)
T44AC 001:066.578 - 6.698ms 
T44AC 001:066.606 JLINK_IsHalted()
T44AC 001:068.504 - 1.897ms returns FALSE
T44AC 001:068.531 JLINK_HasError()
T44AC 001:078.655 JLINK_IsHalted()
T44AC 001:079.485 - 0.830ms returns FALSE
T44AC 001:079.498 JLINK_HasError()
T44AC 001:081.174 JLINK_IsHalted()
T44AC 001:082.447 - 1.272ms returns FALSE
T44AC 001:082.467 JLINK_HasError()
T44AC 001:083.707 JLINK_IsHalted()
T44AC 001:084.492 - 0.785ms returns FALSE
T44AC 001:084.515 JLINK_HasError()
T44AC 001:086.253 JLINK_IsHalted()
T44AC 001:087.445 - 1.191ms returns FALSE
T44AC 001:087.458 JLINK_HasError()
T44AC 001:088.827 JLINK_IsHalted()
T44AC 001:093.568   CPU_ReadMem(2 bytes @ 0x20000000)
T44AC 001:094.474 - 5.646ms returns TRUE
T44AC 001:094.491 JLINK_ReadReg(R15 (PC))
T44AC 001:094.499 - 0.008ms returns 0x20000000
T44AC 001:094.505 JLINK_ClrBPEx(BPHandle = 0x00000003)
T44AC 001:094.511 - 0.005ms returns 0x00
T44AC 001:094.516 JLINK_ReadReg(R0)
T44AC 001:094.522 - 0.005ms returns 0x00000000
T44AC 001:095.160 JLINK_HasError()
T44AC 001:095.173 JLINK_WriteReg(R0, 0x0001B400)
T44AC 001:095.179 - 0.006ms returns 0
T44AC 001:095.185 JLINK_WriteReg(R1, 0x00000400)
T44AC 001:095.190 - 0.005ms returns 0
T44AC 001:095.196 JLINK_WriteReg(R2, 0x000000FF)
T44AC 001:095.203 - 0.007ms returns 0
T44AC 001:095.211 JLINK_WriteReg(R3, 0x00000000)
T44AC 001:095.216 - 0.004ms returns 0
T44AC 001:095.221 JLINK_WriteReg(R4, 0x00000000)
T44AC 001:095.226 - 0.004ms returns 0
T44AC 001:095.232 JLINK_WriteReg(R5, 0x00000000)
T44AC 001:095.236 - 0.004ms returns 0
T44AC 001:095.242 JLINK_WriteReg(R6, 0x00000000)
T44AC 001:095.247 - 0.004ms returns 0
T44AC 001:095.252 JLINK_WriteReg(R7, 0x00000000)
T44AC 001:095.257 - 0.004ms returns 0
T44AC 001:095.262 JLINK_WriteReg(R8, 0x00000000)
T44AC 001:095.267 - 0.004ms returns 0
T44AC 001:095.272 JLINK_WriteReg(R9, 0x200002E8)
T44AC 001:095.277 - 0.004ms returns 0
T44AC 001:095.283 JLINK_WriteReg(R10, 0x00000000)
T44AC 001:095.287 - 0.004ms returns 0
T44AC 001:095.293 JLINK_WriteReg(R11, 0x00000000)
T44AC 001:095.298 - 0.004ms returns 0
T44AC 001:095.303 JLINK_WriteReg(R12, 0x00000000)
T44AC 001:095.308 - 0.004ms returns 0
T44AC 001:095.313 JLINK_WriteReg(R13 (SP), 0x20002000)
T44AC 001:095.318 - 0.005ms returns 0
T44AC 001:095.324 JLINK_WriteReg(R14, 0x20000001)
T44AC 001:095.329 - 0.004ms returns 0
T44AC 001:095.334 JLINK_WriteReg(R15 (PC), 0x20000144)
T44AC 001:095.339 - 0.004ms returns 0
T44AC 001:095.344 JLINK_WriteReg(XPSR, 0x01000000)
T44AC 001:095.349 - 0.004ms returns 0
T44AC 001:095.355 JLINK_WriteReg(MSP, 0x20002000)
T44AC 001:095.359 - 0.004ms returns 0
T44AC 001:095.365 JLINK_WriteReg(PSP, 0x20002000)
T44AC 001:095.370 - 0.004ms returns 0
T44AC 001:095.375 JLINK_WriteReg(CFBP, 0x00000000)
T44AC 001:095.380 - 0.004ms returns 0
T44AC 001:095.386 JLINK_SetBPEx(Addr = 0x20000000, Type = 0xFFFFFFF2)
T44AC 001:095.391 - 0.006ms returns 0x00000004
T44AC 001:095.397 JLINK_Go()
T44AC 001:095.408   CPU_ReadMem(4 bytes @ 0xE0001000)
T44AC 001:101.652 - 6.253ms 
T44AC 001:101.689 JLINK_IsHalted()
T44AC 001:107.598   CPU_ReadMem(2 bytes @ 0x20000000)
T44AC 001:108.511 - 6.821ms returns TRUE
T44AC 001:108.541 JLINK_ReadReg(R15 (PC))
T44AC 001:108.555 - 0.014ms returns 0x20000000
T44AC 001:108.566 JLINK_ClrBPEx(BPHandle = 0x00000004)
T44AC 001:108.574 - 0.008ms returns 0x00
T44AC 001:108.586 JLINK_ReadReg(R0)
T44AC 001:108.594 - 0.008ms returns 0x00000001
T44AC 001:108.659 JLINK_HasError()
T44AC 001:108.677 JLINK_WriteReg(R0, 0x0001B400)
T44AC 001:108.688 - 0.010ms returns 0
T44AC 001:108.699 JLINK_WriteReg(R1, 0x00000400)
T44AC 001:108.708 - 0.009ms returns 0
T44AC 001:108.715 JLINK_WriteReg(R2, 0x000000FF)
T44AC 001:108.722 - 0.006ms returns 0
T44AC 001:108.730 JLINK_WriteReg(R3, 0x00000000)
T44AC 001:108.737 - 0.007ms returns 0
T44AC 001:108.746 JLINK_WriteReg(R4, 0x00000000)
T44AC 001:108.755 - 0.008ms returns 0
T44AC 001:108.764 JLINK_WriteReg(R5, 0x00000000)
T44AC 001:108.772 - 0.008ms returns 0
T44AC 001:108.779 JLINK_WriteReg(R6, 0x00000000)
T44AC 001:108.786 - 0.006ms returns 0
T44AC 001:108.793 JLINK_WriteReg(R7, 0x00000000)
T44AC 001:108.799 - 0.006ms returns 0
T44AC 001:108.807 JLINK_WriteReg(R8, 0x00000000)
T44AC 001:108.813 - 0.006ms returns 0
T44AC 001:108.822 JLINK_WriteReg(R9, 0x200002E8)
T44AC 001:108.829 - 0.007ms returns 0
T44AC 001:108.837 JLINK_WriteReg(R10, 0x00000000)
T44AC 001:108.844 - 0.007ms returns 0
T44AC 001:108.853 JLINK_WriteReg(R11, 0x00000000)
T44AC 001:108.859 - 0.006ms returns 0
T44AC 001:108.867 JLINK_WriteReg(R12, 0x00000000)
T44AC 001:108.874 - 0.007ms returns 0
T44AC 001:108.883 JLINK_WriteReg(R13 (SP), 0x20002000)
T44AC 001:108.890 - 0.007ms returns 0
T44AC 001:108.897 JLINK_WriteReg(R14, 0x20000001)
T44AC 001:108.904 - 0.007ms returns 0
T44AC 001:108.913 JLINK_WriteReg(R15 (PC), 0x2000007C)
T44AC 001:108.922 - 0.009ms returns 0
T44AC 001:108.931 JLINK_WriteReg(XPSR, 0x01000000)
T44AC 001:108.941 - 0.009ms returns 0
T44AC 001:108.951 JLINK_WriteReg(MSP, 0x20002000)
T44AC 001:108.960 - 0.008ms returns 0
T44AC 001:108.968 JLINK_WriteReg(PSP, 0x20002000)
T44AC 001:108.975 - 0.007ms returns 0
T44AC 001:108.983 JLINK_WriteReg(CFBP, 0x00000000)
T44AC 001:108.990 - 0.007ms returns 0
T44AC 001:109.000 JLINK_SetBPEx(Addr = 0x20000000, Type = 0xFFFFFFF2)
T44AC 001:109.014 - 0.014ms returns 0x00000005
T44AC 001:109.025 JLINK_Go()
T44AC 001:109.042   CPU_ReadMem(4 bytes @ 0xE0001000)
T44AC 001:115.578 - 6.552ms 
T44AC 001:115.609 JLINK_IsHalted()
T44AC 001:117.529 - 1.919ms returns FALSE
T44AC 001:117.565 JLINK_HasError()
T44AC 001:119.243 JLINK_IsHalted()
T44AC 001:120.459 - 1.215ms returns FALSE
T44AC 001:120.475 JLINK_HasError()
T44AC 001:122.229 JLINK_IsHalted()
T44AC 001:123.461 - 1.231ms returns FALSE
T44AC 001:123.473 JLINK_HasError()
T44AC 001:125.248 JLINK_IsHalted()
T44AC 001:126.456 - 1.207ms returns FALSE
T44AC 001:126.474 JLINK_HasError()
T44AC 001:127.975 JLINK_IsHalted()
T44AC 001:128.502 - 0.526ms returns FALSE
T44AC 001:128.517 JLINK_HasError()
T44AC 001:130.027 JLINK_IsHalted()
T44AC 001:131.442 - 1.415ms returns FALSE
T44AC 001:131.455 JLINK_HasError()
T44AC 001:133.026 JLINK_IsHalted()
T44AC 001:134.502 - 1.474ms returns FALSE
T44AC 001:134.538 JLINK_HasError()
T44AC 001:136.240 JLINK_IsHalted()
T44AC 001:141.550   CPU_ReadMem(2 bytes @ 0x20000000)
T44AC 001:142.477 - 6.237ms returns TRUE
T44AC 001:142.499 JLINK_ReadReg(R15 (PC))
T44AC 001:142.509 - 0.010ms returns 0x20000000
T44AC 001:142.517 JLINK_ClrBPEx(BPHandle = 0x00000005)
T44AC 001:142.528 - 0.011ms returns 0x00
T44AC 001:142.540 JLINK_ReadReg(R0)
T44AC 001:142.550 - 0.010ms returns 0x00000000
T44AC 001:143.254 JLINK_HasError()
T44AC 001:143.267 JLINK_WriteReg(R0, 0x0001B800)
T44AC 001:143.274 - 0.006ms returns 0
T44AC 001:143.280 JLINK_WriteReg(R1, 0x00000400)
T44AC 001:143.285 - 0.005ms returns 0
T44AC 001:143.291 JLINK_WriteReg(R2, 0x000000FF)
T44AC 001:143.296 - 0.004ms returns 0
T44AC 001:143.301 JLINK_WriteReg(R3, 0x00000000)
T44AC 001:143.306 - 0.004ms returns 0
T44AC 001:143.311 JLINK_WriteReg(R4, 0x00000000)
T44AC 001:143.316 - 0.004ms returns 0
T44AC 001:143.322 JLINK_WriteReg(R5, 0x00000000)
T44AC 001:143.326 - 0.004ms returns 0
T44AC 001:143.332 JLINK_WriteReg(R6, 0x00000000)
T44AC 001:143.336 - 0.004ms returns 0
T44AC 001:143.342 JLINK_WriteReg(R7, 0x00000000)
T44AC 001:143.346 - 0.004ms returns 0
T44AC 001:143.352 JLINK_WriteReg(R8, 0x00000000)
T44AC 001:143.358 - 0.006ms returns 0
T44AC 001:143.369 JLINK_WriteReg(R9, 0x200002E8)
T44AC 001:143.379 - 0.009ms returns 0
T44AC 001:143.386 JLINK_WriteReg(R10, 0x00000000)
T44AC 001:143.391 - 0.004ms returns 0
T44AC 001:143.397 JLINK_WriteReg(R11, 0x00000000)
T44AC 001:143.402 - 0.004ms returns 0
T44AC 001:143.407 JLINK_WriteReg(R12, 0x00000000)
T44AC 001:143.412 - 0.004ms returns 0
T44AC 001:143.418 JLINK_WriteReg(R13 (SP), 0x20002000)
T44AC 001:143.423 - 0.005ms returns 0
T44AC 001:143.428 JLINK_WriteReg(R14, 0x20000001)
T44AC 001:143.433 - 0.004ms returns 0
T44AC 001:143.438 JLINK_WriteReg(R15 (PC), 0x20000144)
T44AC 001:143.443 - 0.004ms returns 0
T44AC 001:143.449 JLINK_WriteReg(XPSR, 0x01000000)
T44AC 001:143.454 - 0.004ms returns 0
T44AC 001:143.459 JLINK_WriteReg(MSP, 0x20002000)
T44AC 001:143.464 - 0.004ms returns 0
T44AC 001:143.469 JLINK_WriteReg(PSP, 0x20002000)
T44AC 001:143.474 - 0.004ms returns 0
T44AC 001:143.479 JLINK_WriteReg(CFBP, 0x00000000)
T44AC 001:143.484 - 0.004ms returns 0
T44AC 001:143.490 JLINK_SetBPEx(Addr = 0x20000000, Type = 0xFFFFFFF2)
T44AC 001:143.495 - 0.005ms returns 0x00000006
T44AC 001:143.501 JLINK_Go()
T44AC 001:143.513   CPU_ReadMem(4 bytes @ 0xE0001000)
T44AC 001:149.624 - 6.122ms 
T44AC 001:149.642 JLINK_IsHalted()
T44AC 001:155.575   CPU_ReadMem(2 bytes @ 0x20000000)
T44AC 001:156.511 - 6.868ms returns TRUE
T44AC 001:156.529 JLINK_ReadReg(R15 (PC))
T44AC 001:156.538 - 0.008ms returns 0x20000000
T44AC 001:156.545 JLINK_ClrBPEx(BPHandle = 0x00000006)
T44AC 001:156.552 - 0.006ms returns 0x00
T44AC 001:156.559 JLINK_ReadReg(R0)
T44AC 001:156.565 - 0.006ms returns 0x00000001
T44AC 001:156.573 JLINK_HasError()
T44AC 001:156.581 JLINK_WriteReg(R0, 0x0001B800)
T44AC 001:156.588 - 0.006ms returns 0
T44AC 001:156.595 JLINK_WriteReg(R1, 0x00000400)
T44AC 001:156.601 - 0.006ms returns 0
T44AC 001:156.611 JLINK_WriteReg(R2, 0x000000FF)
T44AC 001:156.619 - 0.008ms returns 0
T44AC 001:156.626 JLINK_WriteReg(R3, 0x00000000)
T44AC 001:156.632 - 0.006ms returns 0
T44AC 001:156.639 JLINK_WriteReg(R4, 0x00000000)
T44AC 001:156.645 - 0.006ms returns 0
T44AC 001:156.652 JLINK_WriteReg(R5, 0x00000000)
T44AC 001:156.658 - 0.005ms returns 0
T44AC 001:156.665 JLINK_WriteReg(R6, 0x00000000)
T44AC 001:156.671 - 0.005ms returns 0
T44AC 001:156.677 JLINK_WriteReg(R7, 0x00000000)
T44AC 001:156.683 - 0.005ms returns 0
T44AC 001:156.690 JLINK_WriteReg(R8, 0x00000000)
T44AC 001:156.696 - 0.005ms returns 0
T44AC 001:156.703 JLINK_WriteReg(R9, 0x200002E8)
T44AC 001:156.709 - 0.005ms returns 0
T44AC 001:156.715 JLINK_WriteReg(R10, 0x00000000)
T44AC 001:156.721 - 0.005ms returns 0
T44AC 001:156.728 JLINK_WriteReg(R11, 0x00000000)
T44AC 001:156.734 - 0.005ms returns 0
T44AC 001:156.741 JLINK_WriteReg(R12, 0x00000000)
T44AC 001:156.747 - 0.005ms returns 0
T44AC 001:156.754 JLINK_WriteReg(R13 (SP), 0x20002000)
T44AC 001:156.760 - 0.006ms returns 0
T44AC 001:156.766 JLINK_WriteReg(R14, 0x20000001)
T44AC 001:156.772 - 0.005ms returns 0
T44AC 001:156.779 JLINK_WriteReg(R15 (PC), 0x2000007C)
T44AC 001:156.785 - 0.006ms returns 0
T44AC 001:156.792 JLINK_WriteReg(XPSR, 0x01000000)
T44AC 001:156.798 - 0.006ms returns 0
T44AC 001:156.805 JLINK_WriteReg(MSP, 0x20002000)
T44AC 001:156.810 - 0.005ms returns 0
T44AC 001:156.817 JLINK_WriteReg(PSP, 0x20002000)
T44AC 001:156.823 - 0.005ms returns 0
T44AC 001:156.830 JLINK_WriteReg(CFBP, 0x00000000)
T44AC 001:156.836 - 0.005ms returns 0
T44AC 001:156.843 JLINK_SetBPEx(Addr = 0x20000000, Type = 0xFFFFFFF2)
T44AC 001:156.850 - 0.006ms returns 0x00000007
T44AC 001:156.856 JLINK_Go()
T44AC 001:156.869   CPU_ReadMem(4 bytes @ 0xE0001000)
T44AC 001:163.579 - 6.721ms 
T44AC 001:163.608 JLINK_IsHalted()
T44AC 001:165.486 - 1.877ms returns FALSE
T44AC 001:165.505 JLINK_HasError()
T44AC 001:166.881 JLINK_IsHalted()
T44AC 001:167.449 - 0.568ms returns FALSE
T44AC 001:167.469 JLINK_HasError()
T44AC 001:168.669 JLINK_IsHalted()
T44AC 001:169.442 - 0.772ms returns FALSE
T44AC 001:169.456 JLINK_HasError()
T44AC 001:172.183 JLINK_IsHalted()
T44AC 001:173.488 - 1.304ms returns FALSE
T44AC 001:173.499 JLINK_HasError()
T44AC 001:174.688 JLINK_IsHalted()
T44AC 001:175.481 - 0.793ms returns FALSE
T44AC 001:175.495 JLINK_HasError()
T44AC 001:176.697 JLINK_IsHalted()
T44AC 001:177.443 - 0.745ms returns FALSE
T44AC 001:177.457 JLINK_HasError()
T44AC 001:178.690 JLINK_IsHalted()
T44AC 001:179.444 - 0.753ms returns FALSE
T44AC 001:179.454 JLINK_HasError()
T44AC 001:181.201 JLINK_IsHalted()
T44AC 001:182.454 - 1.253ms returns FALSE
T44AC 001:182.469 JLINK_HasError()
T44AC 001:184.232 JLINK_IsHalted()
T44AC 001:189.540   CPU_ReadMem(2 bytes @ 0x20000000)
T44AC 001:190.462 - 6.229ms returns TRUE
T44AC 001:190.475 JLINK_ReadReg(R15 (PC))
T44AC 001:190.484 - 0.009ms returns 0x20000000
T44AC 001:190.492 JLINK_ClrBPEx(BPHandle = 0x00000007)
T44AC 001:190.499 - 0.006ms returns 0x00
T44AC 001:190.506 JLINK_ReadReg(R0)
T44AC 001:190.512 - 0.006ms returns 0x00000000
T44AC 001:191.186 JLINK_HasError()
T44AC 001:191.198 JLINK_WriteReg(R0, 0x0001BC00)
T44AC 001:191.204 - 0.006ms returns 0
T44AC 001:191.210 JLINK_WriteReg(R1, 0x00000400)
T44AC 001:191.215 - 0.005ms returns 0
T44AC 001:191.221 JLINK_WriteReg(R2, 0x000000FF)
T44AC 001:191.226 - 0.004ms returns 0
T44AC 001:191.231 JLINK_WriteReg(R3, 0x00000000)
T44AC 001:191.236 - 0.004ms returns 0
T44AC 001:191.241 JLINK_WriteReg(R4, 0x00000000)
T44AC 001:191.246 - 0.004ms returns 0
T44AC 001:191.251 JLINK_WriteReg(R5, 0x00000000)
T44AC 001:191.256 - 0.004ms returns 0
T44AC 001:191.262 JLINK_WriteReg(R6, 0x00000000)
T44AC 001:191.266 - 0.004ms returns 0
T44AC 001:191.272 JLINK_WriteReg(R7, 0x00000000)
T44AC 001:191.276 - 0.004ms returns 0
T44AC 001:191.282 JLINK_WriteReg(R8, 0x00000000)
T44AC 001:191.287 - 0.004ms returns 0
T44AC 001:191.292 JLINK_WriteReg(R9, 0x200002E8)
T44AC 001:191.297 - 0.004ms returns 0
T44AC 001:191.346 JLINK_WriteReg(R10, 0x00000000)
T44AC 001:191.352 - 0.005ms returns 0
T44AC 001:191.357 JLINK_WriteReg(R11, 0x00000000)
T44AC 001:191.362 - 0.004ms returns 0
T44AC 001:191.368 JLINK_WriteReg(R12, 0x00000000)
T44AC 001:191.372 - 0.004ms returns 0
T44AC 001:191.378 JLINK_WriteReg(R13 (SP), 0x20002000)
T44AC 001:191.383 - 0.005ms returns 0
T44AC 001:191.388 JLINK_WriteReg(R14, 0x20000001)
T44AC 001:191.393 - 0.004ms returns 0
T44AC 001:191.399 JLINK_WriteReg(R15 (PC), 0x20000144)
T44AC 001:191.404 - 0.004ms returns 0
T44AC 001:191.409 JLINK_WriteReg(XPSR, 0x01000000)
T44AC 001:191.414 - 0.004ms returns 0
T44AC 001:191.419 JLINK_WriteReg(MSP, 0x20002000)
T44AC 001:191.424 - 0.004ms returns 0
T44AC 001:191.430 JLINK_WriteReg(PSP, 0x20002000)
T44AC 001:191.434 - 0.004ms returns 0
T44AC 001:191.440 JLINK_WriteReg(CFBP, 0x00000000)
T44AC 001:191.445 - 0.004ms returns 0
T44AC 001:191.451 JLINK_SetBPEx(Addr = 0x20000000, Type = 0xFFFFFFF2)
T44AC 001:191.456 - 0.005ms returns 0x00000008
T44AC 001:191.462 JLINK_Go()
T44AC 001:191.473   CPU_ReadMem(4 bytes @ 0xE0001000)
T44AC 001:197.623 - 6.160ms 
T44AC 001:197.644 JLINK_IsHalted()
T44AC 001:203.565   CPU_ReadMem(2 bytes @ 0x20000000)
T44AC 001:204.518 - 6.873ms returns TRUE
T44AC 001:204.540 JLINK_ReadReg(R15 (PC))
T44AC 001:204.553 - 0.012ms returns 0x20000000
T44AC 001:204.560 JLINK_ClrBPEx(BPHandle = 0x00000008)
T44AC 001:204.576 - 0.015ms returns 0x00
T44AC 001:204.582 JLINK_ReadReg(R0)
T44AC 001:204.587 - 0.005ms returns 0x00000001
T44AC 001:204.594 JLINK_HasError()
T44AC 001:204.600 JLINK_WriteReg(R0, 0x0001BC00)
T44AC 001:204.605 - 0.005ms returns 0
T44AC 001:204.611 JLINK_WriteReg(R1, 0x00000400)
T44AC 001:204.616 - 0.004ms returns 0
T44AC 001:204.622 JLINK_WriteReg(R2, 0x000000FF)
T44AC 001:204.627 - 0.004ms returns 0
T44AC 001:204.632 JLINK_WriteReg(R3, 0x00000000)
T44AC 001:204.637 - 0.004ms returns 0
T44AC 001:204.642 JLINK_WriteReg(R4, 0x00000000)
T44AC 001:204.647 - 0.004ms returns 0
T44AC 001:204.653 JLINK_WriteReg(R5, 0x00000000)
T44AC 001:204.657 - 0.004ms returns 0
T44AC 001:204.663 JLINK_WriteReg(R6, 0x00000000)
T44AC 001:204.667 - 0.004ms returns 0
T44AC 001:204.673 JLINK_WriteReg(R7, 0x00000000)
T44AC 001:204.677 - 0.004ms returns 0
T44AC 001:204.683 JLINK_WriteReg(R8, 0x00000000)
T44AC 001:204.688 - 0.005ms returns 0
T44AC 001:204.693 JLINK_WriteReg(R9, 0x200002E8)
T44AC 001:204.698 - 0.005ms returns 0
T44AC 001:204.704 JLINK_WriteReg(R10, 0x00000000)
T44AC 001:204.709 - 0.004ms returns 0
T44AC 001:204.714 JLINK_WriteReg(R11, 0x00000000)
T44AC 001:204.719 - 0.004ms returns 0
T44AC 001:204.724 JLINK_WriteReg(R12, 0x00000000)
T44AC 001:204.729 - 0.004ms returns 0
T44AC 001:204.735 JLINK_WriteReg(R13 (SP), 0x20002000)
T44AC 001:204.739 - 0.004ms returns 0
T44AC 001:204.745 JLINK_WriteReg(R14, 0x20000001)
T44AC 001:204.749 - 0.004ms returns 0
T44AC 001:204.755 JLINK_WriteReg(R15 (PC), 0x2000007C)
T44AC 001:204.760 - 0.004ms returns 0
T44AC 001:204.765 JLINK_WriteReg(XPSR, 0x01000000)
T44AC 001:204.770 - 0.004ms returns 0
T44AC 001:204.775 JLINK_WriteReg(MSP, 0x20002000)
T44AC 001:204.780 - 0.004ms returns 0
T44AC 001:204.785 JLINK_WriteReg(PSP, 0x20002000)
T44AC 001:204.790 - 0.004ms returns 0
T44AC 001:204.796 JLINK_WriteReg(CFBP, 0x00000000)
T44AC 001:204.800 - 0.004ms returns 0
T44AC 001:204.806 JLINK_SetBPEx(Addr = 0x20000000, Type = 0xFFFFFFF2)
T44AC 001:204.812 - 0.005ms returns 0x00000009
T44AC 001:204.817 JLINK_Go()
T44AC 001:204.828   CPU_ReadMem(4 bytes @ 0xE0001000)
T44AC 001:211.583 - 6.764ms 
T44AC 001:211.606 JLINK_IsHalted()
T44AC 001:213.489 - 1.882ms returns FALSE
T44AC 001:213.506 JLINK_HasError()
T44AC 001:215.722 JLINK_IsHalted()
T44AC 001:216.449 - 0.726ms returns FALSE
T44AC 001:216.467 JLINK_HasError()
T44AC 001:217.729 JLINK_IsHalted()
T44AC 001:218.447 - 0.718ms returns FALSE
T44AC 001:218.463 JLINK_HasError()
T44AC 001:220.342 JLINK_IsHalted()
T44AC 001:221.489 - 1.147ms returns FALSE
T44AC 001:221.500 JLINK_HasError()
T44AC 001:222.875 JLINK_IsHalted()
T44AC 001:223.473 - 0.597ms returns FALSE
T44AC 001:223.483 JLINK_HasError()
T44AC 001:224.878 JLINK_IsHalted()
T44AC 001:225.451 - 0.572ms returns FALSE
T44AC 001:225.464 JLINK_HasError()
T44AC 001:227.158 JLINK_IsHalted()
T44AC 001:228.499 - 1.340ms returns FALSE
T44AC 001:228.518 JLINK_HasError()
T44AC 001:229.662 JLINK_IsHalted()
T44AC 001:230.445 - 0.782ms returns FALSE
T44AC 001:230.457 JLINK_HasError()
T44AC 001:231.669 JLINK_IsHalted()
T44AC 001:232.445 - 0.781ms returns FALSE
T44AC 001:232.459 JLINK_HasError()
T44AC 001:233.666 JLINK_IsHalted()
T44AC 001:238.609   CPU_ReadMem(2 bytes @ 0x20000000)
T44AC 001:239.471 - 5.804ms returns TRUE
T44AC 001:239.488 JLINK_ReadReg(R15 (PC))
T44AC 001:239.497 - 0.008ms returns 0x20000000
T44AC 001:239.503 JLINK_ClrBPEx(BPHandle = 0x00000009)
T44AC 001:239.509 - 0.005ms returns 0x00
T44AC 001:239.515 JLINK_ReadReg(R0)
T44AC 001:239.520 - 0.005ms returns 0x00000000
T44AC 001:240.191 JLINK_HasError()
T44AC 001:240.203 JLINK_WriteReg(R0, 0x0001C000)
T44AC 001:240.210 - 0.006ms returns 0
T44AC 001:240.215 JLINK_WriteReg(R1, 0x00000400)
T44AC 001:240.220 - 0.005ms returns 0
T44AC 001:240.226 JLINK_WriteReg(R2, 0x000000FF)
T44AC 001:240.231 - 0.005ms returns 0
T44AC 001:240.237 JLINK_WriteReg(R3, 0x00000000)
T44AC 001:240.241 - 0.004ms returns 0
T44AC 001:240.247 JLINK_WriteReg(R4, 0x00000000)
T44AC 001:240.252 - 0.004ms returns 0
T44AC 001:240.257 JLINK_WriteReg(R5, 0x00000000)
T44AC 001:240.262 - 0.004ms returns 0
T44AC 001:240.267 JLINK_WriteReg(R6, 0x00000000)
T44AC 001:240.274 - 0.006ms returns 0
T44AC 001:240.280 JLINK_WriteReg(R7, 0x00000000)
T44AC 001:240.284 - 0.004ms returns 0
T44AC 001:240.290 JLINK_WriteReg(R8, 0x00000000)
T44AC 001:240.295 - 0.004ms returns 0
T44AC 001:240.300 JLINK_WriteReg(R9, 0x200002E8)
T44AC 001:240.305 - 0.004ms returns 0
T44AC 001:240.310 JLINK_WriteReg(R10, 0x00000000)
T44AC 001:240.315 - 0.004ms returns 0
T44AC 001:240.321 JLINK_WriteReg(R11, 0x00000000)
T44AC 001:240.325 - 0.004ms returns 0
T44AC 001:240.331 JLINK_WriteReg(R12, 0x00000000)
T44AC 001:240.335 - 0.004ms returns 0
T44AC 001:240.341 JLINK_WriteReg(R13 (SP), 0x20002000)
T44AC 001:240.346 - 0.005ms returns 0
T44AC 001:240.352 JLINK_WriteReg(R14, 0x20000001)
T44AC 001:240.356 - 0.004ms returns 0
T44AC 001:240.362 JLINK_WriteReg(R15 (PC), 0x20000144)
T44AC 001:240.367 - 0.004ms returns 0
T44AC 001:240.372 JLINK_WriteReg(XPSR, 0x01000000)
T44AC 001:240.377 - 0.004ms returns 0
T44AC 001:240.383 JLINK_WriteReg(MSP, 0x20002000)
T44AC 001:240.387 - 0.004ms returns 0
T44AC 001:240.393 JLINK_WriteReg(PSP, 0x20002000)
T44AC 001:240.398 - 0.004ms returns 0
T44AC 001:240.403 JLINK_WriteReg(CFBP, 0x00000000)
T44AC 001:240.408 - 0.004ms returns 0
T44AC 001:240.414 JLINK_SetBPEx(Addr = 0x20000000, Type = 0xFFFFFFF2)
T44AC 001:240.419 - 0.005ms returns 0x0000000A
T44AC 001:240.425 JLINK_Go()
T44AC 001:240.436   CPU_ReadMem(4 bytes @ 0xE0001000)
T44AC 001:246.614 - 6.187ms 
T44AC 001:246.649 JLINK_IsHalted()
T44AC 001:252.590   CPU_ReadMem(2 bytes @ 0x20000000)
T44AC 001:253.519 - 6.869ms returns TRUE
T44AC 001:253.545 JLINK_ReadReg(R15 (PC))
T44AC 001:253.555 - 0.010ms returns 0x20000000
T44AC 001:253.565 JLINK_ClrBPEx(BPHandle = 0x0000000A)
T44AC 001:253.572 - 0.007ms returns 0x00
T44AC 001:253.582 JLINK_ReadReg(R0)
T44AC 001:253.589 - 0.006ms returns 0x00000001
T44AC 001:253.599 JLINK_HasError()
T44AC 001:253.607 JLINK_WriteReg(R0, 0x0001C000)
T44AC 001:253.613 - 0.006ms returns 0
T44AC 001:253.623 JLINK_WriteReg(R1, 0x00000400)
T44AC 001:253.629 - 0.006ms returns 0
T44AC 001:253.638 JLINK_WriteReg(R2, 0x000000FF)
T44AC 001:253.645 - 0.006ms returns 0
T44AC 001:253.654 JLINK_WriteReg(R3, 0x00000000)
T44AC 001:253.660 - 0.006ms returns 0
T44AC 001:253.669 JLINK_WriteReg(R4, 0x00000000)
T44AC 001:253.675 - 0.006ms returns 0
T44AC 001:253.684 JLINK_WriteReg(R5, 0x00000000)
T44AC 001:253.690 - 0.005ms returns 0
T44AC 001:253.699 JLINK_WriteReg(R6, 0x00000000)
T44AC 001:253.705 - 0.006ms returns 0
T44AC 001:253.719 JLINK_WriteReg(R7, 0x00000000)
T44AC 001:253.725 - 0.006ms returns 0
T44AC 001:253.734 JLINK_WriteReg(R8, 0x00000000)
T44AC 001:253.740 - 0.006ms returns 0
T44AC 001:253.749 JLINK_WriteReg(R9, 0x200002E8)
T44AC 001:253.755 - 0.006ms returns 0
T44AC 001:253.765 JLINK_WriteReg(R10, 0x00000000)
T44AC 001:253.771 - 0.006ms returns 0
T44AC 001:253.780 JLINK_WriteReg(R11, 0x00000000)
T44AC 001:253.786 - 0.006ms returns 0
T44AC 001:253.802 JLINK_WriteReg(R12, 0x00000000)
T44AC 001:253.808 - 0.006ms returns 0
T44AC 001:253.817 JLINK_WriteReg(R13 (SP), 0x20002000)
T44AC 001:253.823 - 0.006ms returns 0
T44AC 001:253.833 JLINK_WriteReg(R14, 0x20000001)
T44AC 001:253.839 - 0.006ms returns 0
T44AC 001:253.848 JLINK_WriteReg(R15 (PC), 0x2000007C)
T44AC 001:253.854 - 0.006ms returns 0
T44AC 001:253.863 JLINK_WriteReg(XPSR, 0x01000000)
T44AC 001:253.869 - 0.006ms returns 0
T44AC 001:253.878 JLINK_WriteReg(MSP, 0x20002000)
T44AC 001:253.884 - 0.006ms returns 0
T44AC 001:253.893 JLINK_WriteReg(PSP, 0x20002000)
T44AC 001:253.899 - 0.006ms returns 0
T44AC 001:253.908 JLINK_WriteReg(CFBP, 0x00000000)
T44AC 001:253.914 - 0.006ms returns 0
T44AC 001:253.924 JLINK_SetBPEx(Addr = 0x20000000, Type = 0xFFFFFFF2)
T44AC 001:253.931 - 0.007ms returns 0x0000000B
T44AC 001:253.940 JLINK_Go()
T44AC 001:253.953   CPU_ReadMem(4 bytes @ 0xE0001000)
T44AC 001:260.638 - 6.696ms 
T44AC 001:260.667 JLINK_IsHalted()
T44AC 001:262.458 - 1.789ms returns FALSE
T44AC 001:262.486 JLINK_HasError()
T44AC 001:264.263 JLINK_IsHalted()
T44AC 001:265.447 - 1.183ms returns FALSE
T44AC 001:265.458 JLINK_HasError()
T44AC 001:267.273 JLINK_IsHalted()
T44AC 001:268.499 - 1.226ms returns FALSE
T44AC 001:268.517 JLINK_HasError()
T44AC 001:270.284 JLINK_IsHalted()
T44AC 001:271.456 - 1.172ms returns FALSE
T44AC 001:271.470 JLINK_HasError()
T44AC 001:273.343 JLINK_IsHalted()
T44AC 001:274.461 - 1.117ms returns FALSE
T44AC 001:274.485 JLINK_HasError()
T44AC 001:276.326 JLINK_IsHalted()
T44AC 001:277.522 - 1.195ms returns FALSE
T44AC 001:277.550 JLINK_HasError()
T44AC 001:279.365 JLINK_IsHalted()
T44AC 001:280.463 - 1.097ms returns FALSE
T44AC 001:280.475 JLINK_HasError()
T44AC 001:282.370 JLINK_IsHalted()
T44AC 001:287.633   CPU_ReadMem(2 bytes @ 0x20000000)
T44AC 001:288.477 - 6.106ms returns TRUE
T44AC 001:288.492 JLINK_ReadReg(R15 (PC))
T44AC 001:288.500 - 0.008ms returns 0x20000000
T44AC 001:288.508 JLINK_ClrBPEx(BPHandle = 0x0000000B)
T44AC 001:288.513 - 0.005ms returns 0x00
T44AC 001:288.522 JLINK_ReadReg(R0)
T44AC 001:288.527 - 0.005ms returns 0x00000000
T44AC 001:288.937 JLINK_HasError()
T44AC 001:288.949 JLINK_WriteReg(R0, 0x00000001)
T44AC 001:288.955 - 0.006ms returns 0
T44AC 001:288.961 JLINK_WriteReg(R1, 0x00000400)
T44AC 001:288.966 - 0.005ms returns 0
T44AC 001:288.971 JLINK_WriteReg(R2, 0x000000FF)
T44AC 001:288.976 - 0.004ms returns 0
T44AC 001:288.981 JLINK_WriteReg(R3, 0x00000000)
T44AC 001:288.986 - 0.004ms returns 0
T44AC 001:288.992 JLINK_WriteReg(R4, 0x00000000)
T44AC 001:288.996 - 0.004ms returns 0
T44AC 001:289.002 JLINK_WriteReg(R5, 0x00000000)
T44AC 001:289.007 - 0.004ms returns 0
T44AC 001:289.012 JLINK_WriteReg(R6, 0x00000000)
T44AC 001:289.017 - 0.004ms returns 0
T44AC 001:289.022 JLINK_WriteReg(R7, 0x00000000)
T44AC 001:289.027 - 0.004ms returns 0
T44AC 001:289.033 JLINK_WriteReg(R8, 0x00000000)
T44AC 001:289.037 - 0.004ms returns 0
T44AC 001:289.043 JLINK_WriteReg(R9, 0x200002E8)
T44AC 001:289.047 - 0.004ms returns 0
T44AC 001:289.053 JLINK_WriteReg(R10, 0x00000000)
T44AC 001:289.058 - 0.004ms returns 0
T44AC 001:289.063 JLINK_WriteReg(R11, 0x00000000)
T44AC 001:289.068 - 0.004ms returns 0
T44AC 001:289.073 JLINK_WriteReg(R12, 0x00000000)
T44AC 001:289.078 - 0.004ms returns 0
T44AC 001:289.083 JLINK_WriteReg(R13 (SP), 0x20002000)
T44AC 001:289.088 - 0.005ms returns 0
T44AC 001:289.094 JLINK_WriteReg(R14, 0x20000001)
T44AC 001:289.098 - 0.004ms returns 0
T44AC 001:289.104 JLINK_WriteReg(R15 (PC), 0x20000058)
T44AC 001:289.112 - 0.007ms returns 0
T44AC 001:289.119 JLINK_WriteReg(XPSR, 0x01000000)
T44AC 001:289.124 - 0.005ms returns 0
T44AC 001:289.130 JLINK_WriteReg(MSP, 0x20002000)
T44AC 001:289.134 - 0.004ms returns 0
T44AC 001:289.140 JLINK_WriteReg(PSP, 0x20002000)
T44AC 001:289.145 - 0.004ms returns 0
T44AC 001:289.150 JLINK_WriteReg(CFBP, 0x00000000)
T44AC 001:289.155 - 0.004ms returns 0
T44AC 001:289.161 JLINK_SetBPEx(Addr = 0x20000000, Type = 0xFFFFFFF2)
T44AC 001:289.166 - 0.005ms returns 0x0000000C
T44AC 001:289.172 JLINK_Go()
T44AC 001:289.183   CPU_ReadMem(4 bytes @ 0xE0001000)
T44AC 001:295.579 - 6.406ms 
T44AC 001:295.606 JLINK_IsHalted()
T44AC 001:301.578   CPU_ReadMem(2 bytes @ 0x20000000)
T44AC 001:302.490 - 6.882ms returns TRUE
T44AC 001:302.511 JLINK_ReadReg(R15 (PC))
T44AC 001:302.523 - 0.012ms returns 0x20000000
T44AC 001:302.534 JLINK_ClrBPEx(BPHandle = 0x0000000C)
T44AC 001:302.543 - 0.009ms returns 0x00
T44AC 001:302.553 JLINK_ReadReg(R0)
T44AC 001:302.562 - 0.008ms returns 0x00000000
T44AC 001:359.698 JLINK_WriteMem(0x20000000, 0x2EC Bytes, ...)
T44AC 001:359.713   Data:  00 BE 0A E0 0D 78 2D 06 68 40 08 24 40 00 00 D3 ...
T44AC 001:359.735   CPU_WriteMem(748 bytes @ 0x20000000)
T44AC 001:368.188 - 8.489ms returns 0x2EC
T44AC 001:368.292 JLINK_HasError()
T44AC 001:368.304 JLINK_WriteReg(R0, 0x00000000)
T44AC 001:368.313 - 0.008ms returns 0
T44AC 001:368.319 JLINK_WriteReg(R1, 0x00F42400)
T44AC 001:368.324 - 0.005ms returns 0
T44AC 001:368.330 JLINK_WriteReg(R2, 0x00000002)
T44AC 001:368.335 - 0.005ms returns 0
T44AC 001:368.340 JLINK_WriteReg(R3, 0x00000000)
T44AC 001:368.345 - 0.004ms returns 0
T44AC 001:368.351 JLINK_WriteReg(R4, 0x00000000)
T44AC 001:368.355 - 0.004ms returns 0
T44AC 001:368.361 JLINK_WriteReg(R5, 0x00000000)
T44AC 001:368.366 - 0.004ms returns 0
T44AC 001:368.371 JLINK_WriteReg(R6, 0x00000000)
T44AC 001:368.376 - 0.004ms returns 0
T44AC 001:368.382 JLINK_WriteReg(R7, 0x00000000)
T44AC 001:368.386 - 0.004ms returns 0
T44AC 001:368.398 JLINK_WriteReg(R8, 0x00000000)
T44AC 001:368.403 - 0.005ms returns 0
T44AC 001:368.409 JLINK_WriteReg(R9, 0x200002E8)
T44AC 001:368.414 - 0.004ms returns 0
T44AC 001:368.419 JLINK_WriteReg(R10, 0x00000000)
T44AC 001:368.424 - 0.004ms returns 0
T44AC 001:368.429 JLINK_WriteReg(R11, 0x00000000)
T44AC 001:368.434 - 0.004ms returns 0
T44AC 001:368.440 JLINK_WriteReg(R12, 0x00000000)
T44AC 001:368.444 - 0.004ms returns 0
T44AC 001:368.450 JLINK_WriteReg(R13 (SP), 0x20002000)
T44AC 001:368.455 - 0.005ms returns 0
T44AC 001:368.461 JLINK_WriteReg(R14, 0x20000001)
T44AC 001:368.465 - 0.004ms returns 0
T44AC 001:368.471 JLINK_WriteReg(R15 (PC), 0x20000028)
T44AC 001:368.476 - 0.005ms returns 0
T44AC 001:368.481 JLINK_WriteReg(XPSR, 0x01000000)
T44AC 001:368.486 - 0.004ms returns 0
T44AC 001:368.492 JLINK_WriteReg(MSP, 0x20002000)
T44AC 001:368.496 - 0.004ms returns 0
T44AC 001:368.502 JLINK_WriteReg(PSP, 0x20002000)
T44AC 001:368.506 - 0.004ms returns 0
T44AC 001:368.512 JLINK_WriteReg(CFBP, 0x00000000)
T44AC 001:368.517 - 0.004ms returns 0
T44AC 001:368.523 JLINK_SetBPEx(Addr = 0x20000000, Type = 0xFFFFFFF2)
T44AC 001:368.534   CPU_ReadMem(2 bytes @ 0x20000000)
T44AC 001:369.489 - 0.966ms returns 0x0000000D
T44AC 001:369.501 JLINK_Go()
T44AC 001:369.511   CPU_WriteMem(2 bytes @ 0x20000000)
T44AC 001:371.520   CPU_ReadMem(4 bytes @ 0xE0001000)
T44AC 001:378.600 - 9.098ms 
T44AC 001:378.630 JLINK_IsHalted()
T44AC 001:384.561   CPU_ReadMem(2 bytes @ 0x20000000)
T44AC 001:385.476 - 6.846ms returns TRUE
T44AC 001:385.496 JLINK_ReadReg(R15 (PC))
T44AC 001:385.506 - 0.010ms returns 0x20000000
T44AC 001:385.514 JLINK_ClrBPEx(BPHandle = 0x0000000D)
T44AC 001:385.521 - 0.006ms returns 0x00
T44AC 001:385.528 JLINK_ReadReg(R0)
T44AC 001:385.534 - 0.006ms returns 0x00000000
T44AC 001:385.994 JLINK_WriteMem(0x200002EC, 0x114 Bytes, ...)
T44AC 001:386.005   Data:  08 1D 00 20 D9 B0 01 00 F3 B0 01 00 F5 B0 01 00 ...
T44AC 001:386.024   CPU_WriteMem(276 bytes @ 0x200002EC)
T44AC 001:390.413 - 4.419ms returns 0x114
T44AC 001:390.436 JLINK_WriteMem(0x20000400, 0x2EC Bytes, ...)
T44AC 001:390.443   Data:  9B 07 03 D0 09 E0 08 C9 12 1F 08 C0 04 2A FA D2 ...
T44AC 001:390.460   CPU_WriteMem(748 bytes @ 0x20000400)
T44AC 001:399.172 - 8.734ms returns 0x2EC
T44AC 001:399.202 JLINK_HasError()
T44AC 001:399.258 JLINK_WriteReg(R0, 0x0001B000)
T44AC 001:399.269 - 0.010ms returns 0
T44AC 001:399.277 JLINK_WriteReg(R1, 0x00000400)
T44AC 001:399.283 - 0.006ms returns 0
T44AC 001:399.291 JLINK_WriteReg(R2, 0x200002EC)
T44AC 001:399.297 - 0.006ms returns 0
T44AC 001:399.304 JLINK_WriteReg(R3, 0x00000000)
T44AC 001:399.310 - 0.006ms returns 0
T44AC 001:399.317 JLINK_WriteReg(R4, 0x00000000)
T44AC 001:399.321 - 0.004ms returns 0
T44AC 001:399.327 JLINK_WriteReg(R5, 0x00000000)
T44AC 001:399.331 - 0.004ms returns 0
T44AC 001:399.337 JLINK_WriteReg(R6, 0x00000000)
T44AC 001:399.342 - 0.004ms returns 0
T44AC 001:399.347 JLINK_WriteReg(R7, 0x00000000)
T44AC 001:399.352 - 0.004ms returns 0
T44AC 001:399.357 JLINK_WriteReg(R8, 0x00000000)
T44AC 001:399.362 - 0.004ms returns 0
T44AC 001:399.368 JLINK_WriteReg(R9, 0x200002E8)
T44AC 001:399.372 - 0.004ms returns 0
T44AC 001:399.378 JLINK_WriteReg(R10, 0x00000000)
T44AC 001:399.383 - 0.004ms returns 0
T44AC 001:399.388 JLINK_WriteReg(R11, 0x00000000)
T44AC 001:399.393 - 0.004ms returns 0
T44AC 001:399.398 JLINK_WriteReg(R12, 0x00000000)
T44AC 001:399.403 - 0.004ms returns 0
T44AC 001:399.409 JLINK_WriteReg(R13 (SP), 0x20002000)
T44AC 001:399.414 - 0.005ms returns 0
T44AC 001:399.420 JLINK_WriteReg(R14, 0x20000001)
T44AC 001:399.424 - 0.004ms returns 0
T44AC 001:399.430 JLINK_WriteReg(R15 (PC), 0x200000AC)
T44AC 001:399.435 - 0.005ms returns 0
T44AC 001:399.441 JLINK_WriteReg(XPSR, 0x01000000)
T44AC 001:399.445 - 0.004ms returns 0
T44AC 001:399.451 JLINK_WriteReg(MSP, 0x20002000)
T44AC 001:399.456 - 0.004ms returns 0
